
SetupTitle, IgVg_mim
PrimitiveTest, I/V Sweep
TestParameter, Context.MainFrame, B1500A
TestParameter, Channel.UnitType, SMU, SMU
TestParameter, Channel.Unit, SMU3:MP, SMU2:HR
TestParameter, Channel.IName, IG, IB
TestParameter, Channel.VName, VG, VB
TestParameter, Channel.Mode, V, V
TestParameter, Channel.Func, VAR1, CONST
TestParameter, Channel.Index, 
TestParameter, Channel.Time, 
TestParameter, Measurement.Port.Unit, SMU3:MP, SMU2:HR
TestParameter, Measurement.Port.SeriesResistor, NONE, NONE
TestParameter, Measurement.Port.Filter, ON, ON
TestParameter, Measurement.Port.OutputVoltageComparison, 0, 0
TestParameter, Measurement.Primary.Locus, Double
TestParameter, Measurement.Primary.Scale, LINEAR
TestParameter, Measurement.Primary.Start, -1.5
TestParameter, Measurement.Primary.Stop, 1.5
TestParameter, Measurement.Primary.Step, 0.02
TestParameter, Measurement.Primary.Compliance, 0.1
TestParameter, Measurement.Primary.PowerCompliance, 0
TestParameter, Measurement.Aborting.Condition, CONTINUE AT ANY
TestParameter, Measurement.PostOutput.Value, START
TestParameter, Measurement.PostOutput.Retention, OFF
TestParameter, Measurement.Bias.Source, -1.5, 0
TestParameter, Measurement.Bias.Compliance, 0.1, 0.1
TestParameter, Measurement.Monitor.Unit, SMU3:MP, SMU2:HR
TestParameter, Measurement.Monitor.Adc, HR ADC, HR ADC
TestParameter, Measurement.Monitor.Measurement, Compliance Side, Compliance Side
TestParameter, Measurement.Monitor.RangingMode, LIMITED, LIMITED
TestParameter, Measurement.Monitor.RangeBoundary, 1nA, 1nA
TestParameter, Measurement.Monitor.RangeRating, BY FULL RANGE, BY FULL RANGE
TestParameter, Measurement.Monitor.RangeRatingCoeff, 50, 50
TestParameter, Measurement.Timing.Hold, 0
TestParameter, Measurement.Timing.Delay, 0
TestParameter, Measurement.Adc.HighSpeed.Mode, AUTO
TestParameter, Measurement.Adc.HighSpeed.Coeff, 1
TestParameter, Measurement.Adc.HighResolution.AutoZero, OFF
TestParameter, Measurement.Adc.HighResolution.Mode, PLC
TestParameter, Measurement.Adc.HighResolution.Coeff, 1
TestParameter, Measurement.WaitTime.Source.Coeff, 1
TestParameter, Measurement.WaitTime.Source.Offset, 0
TestParameter, Measurement.WaitTime.Monitor.Coeff, 1
TestParameter, Measurement.WaitTime.Monitor.Offset, 0
TestParameter, Function.User.Name, IGabs, IBabs
TestParameter, Function.User.Unit, A, A
TestParameter, Function.User.Definition, abs(IG), abs(IB)
TestParameter, Output.Graph.Enabled, true
TestParameter, Output.Graph.AutoScaling, false
TestParameter, Output.Graph.XAxis.Data, VG
TestParameter, Output.Graph.XAxis.Scale, Linear
TestParameter, Output.Graph.XAxis.Left, -2
TestParameter, Output.Graph.XAxis.Right, 2
TestParameter, Output.Graph.XAxis.RunTimeAutoScale, true
TestParameter, Output.Graph.YAxis.Data, IGabs, IBabs
TestParameter, Output.Graph.YAxis.Scale, Log, Log
TestParameter, Output.Graph.YAxis.Bottom, 1E-15, 1E-15
TestParameter, Output.Graph.YAxis.Top, 0.001, 0.001
TestParameter, Output.Graph.YAxis.Group, , 
TestParameter, Output.Graph.YAxis.RunTimeAutoScale, false, false
TestParameter, Output.List.Data, VG, IG
TestParameter, AutoAnalysis.Interpolation, false
TestParameter, AutoAnalysis.Var2StepCount, 1
TestParameter, AutoAnalysis.Var2StepScript, 
TestParameter, AutoAnalysis.Line1.Enabled, false
TestParameter, AutoAnalysis.Line1.Type, 1
TestParameter, AutoAnalysis.Line1.Fix, True
TestParameter, AutoAnalysis.Line1.YAxis, 0
TestParameter, AutoAnalysis.Line1.Point1.Type, 0
TestParameter, AutoAnalysis.Line1.Point1.XY.X, 
TestParameter, AutoAnalysis.Line1.Point1.XY.Y, 
TestParameter, AutoAnalysis.Line1.Point1.Data.Var, 
TestParameter, AutoAnalysis.Line1.Point1.Data.Condition, 
TestParameter, AutoAnalysis.Line1.Point1.Data.Start, false
TestParameter, AutoAnalysis.Line1.Point1.Data.StartVar, 
TestParameter, AutoAnalysis.Line1.Point1.Data.StartCondition, 
TestParameter, AutoAnalysis.Line1.Point2.Type, 0
TestParameter, AutoAnalysis.Line1.Point2.XY.X, 
TestParameter, AutoAnalysis.Line1.Point2.XY.Y, 
TestParameter, AutoAnalysis.Line1.Point2.Data.Var, 
TestParameter, AutoAnalysis.Line1.Point2.Data.Condition, 
TestParameter, AutoAnalysis.Line1.Point2.Data.Start, false
TestParameter, AutoAnalysis.Line1.Point2.Data.StartVar, 
TestParameter, AutoAnalysis.Line1.Point2.Data.StartCondition, 
TestParameter, AutoAnalysis.Line1.GradientExpr, 0
TestParameter, AutoAnalysis.Line2.Enabled, false
TestParameter, AutoAnalysis.Line2.Type, 1
TestParameter, AutoAnalysis.Line2.Fix, True
TestParameter, AutoAnalysis.Line2.YAxis, 0
TestParameter, AutoAnalysis.Line2.Point1.Type, 0
TestParameter, AutoAnalysis.Line2.Point1.XY.X, 
TestParameter, AutoAnalysis.Line2.Point1.XY.Y, 
TestParameter, AutoAnalysis.Line2.Point1.Data.Var, 
TestParameter, AutoAnalysis.Line2.Point1.Data.Condition, 
TestParameter, AutoAnalysis.Line2.Point1.Data.Start, false
TestParameter, AutoAnalysis.Line2.Point1.Data.StartVar, 
TestParameter, AutoAnalysis.Line2.Point1.Data.StartCondition, 
TestParameter, AutoAnalysis.Line2.Point2.Type, 0
TestParameter, AutoAnalysis.Line2.Point2.XY.X, 
TestParameter, AutoAnalysis.Line2.Point2.XY.Y, 
TestParameter, AutoAnalysis.Line2.Point2.Data.Var, 
TestParameter, AutoAnalysis.Line2.Point2.Data.Condition, 
TestParameter, AutoAnalysis.Line2.Point2.Data.Start, false
TestParameter, AutoAnalysis.Line2.Point2.Data.StartVar, 
TestParameter, AutoAnalysis.Line2.Point2.Data.StartCondition, 
TestParameter, AutoAnalysis.Line2.GradientExpr, 0
TestParameter, AutoAnalysis.Marker.Enabled, false
TestParameter, AutoAnalysis.Marker.Data.Var, 
TestParameter, AutoAnalysis.Marker.Data.Condition, 
TestParameter, AutoAnalysis.Marker.Data.Start, false
TestParameter, AutoAnalysis.Marker.Data.StartVar, 
TestParameter, AutoAnalysis.Marker.Data.StartCondition, 
MetaData, TestRecord.EntryPoint, true
MetaData, TestRecord.RecordTime, 02/18/2024 18:49:59
MetaData, TestRecord.TestTarget, 
MetaData, TestRecord.IterationIndex, 1
MetaData, TestRecord.Preservation, true
MetaData, TestRecord.Flag, 
MetaData, TestRecord.Remarks, 
MetaData, TestRecord.LinkKey, 02007c50-1f60-460f-9ec0-6babd872d68f
MetaData, TestRecord.Parameters, 
Dimension1, 302, 302, 302, 302, 302
Dimension2, 1, 1, 1, 1, 1
DataName, VG, IG, IB, IGabs, IBabs
DataValue, -1.5, -1.12853E-06, 1.13018E-06, 1.12853E-06, 1.13018E-06
DataValue, -1.48, -1.05308E-06, 1.0567900000000001E-06, 1.05308E-06, 1.0567900000000001E-06
DataValue, -1.46, -9.82862E-07, 9.81683E-07, 9.82862E-07, 9.81683E-07
DataValue, -1.4400000000000002, -9.14115E-07, 9.14174E-07, 9.14115E-07, 9.14174E-07
DataValue, -1.4200000000000002, -8.67789E-07, 8.67046E-07, 8.67789E-07, 8.67046E-07
DataValue, -1.4000000000000001, -7.87736E-07, 7.86291E-07, 7.87736E-07, 7.86291E-07
DataValue, -1.3800000000000001, -7.27222E-07, 7.28351E-07, 7.27222E-07, 7.28351E-07
DataValue, -1.36, -6.75112E-07, 6.79247E-07, 6.75112E-07, 6.79247E-07
DataValue, -1.34, -6.3145E-07, 6.30541E-07, 6.3145E-07, 6.30541E-07
DataValue, -1.32, -5.82681E-07, 5.82932E-07, 5.82681E-07, 5.82932E-07
DataValue, -1.3, -5.38745E-07, 5.3895399999999994E-07, 5.38745E-07, 5.3895399999999994E-07
DataValue, -1.28, -4.95578E-07, 4.95061E-07, 4.95578E-07, 4.95061E-07
DataValue, -1.26, -4.6075E-07, 4.62283E-07, 4.6075E-07, 4.62283E-07
DataValue, -1.24, -4.26833E-07, 4.24549E-07, 4.26833E-07, 4.24549E-07
DataValue, -1.22, -3.91951E-07, 3.91695E-07, 3.91951E-07, 3.91695E-07
DataValue, -1.2, -3.63206E-07, 3.64684E-07, 3.63206E-07, 3.64684E-07
DataValue, -1.1800000000000002, -3.34328E-07, 3.31377E-07, 3.34328E-07, 3.31377E-07
DataValue, -1.1600000000000001, -3.04504E-07, 3.04151E-07, 3.04504E-07, 3.04151E-07
DataValue, -1.1400000000000001, -2.79975E-07, 2.80553E-07, 2.79975E-07, 2.80553E-07
DataValue, -1.12, -2.57894E-07, 2.5785E-07, 2.57894E-07, 2.5785E-07
DataValue, -1.1, -2.3650199999999998E-07, 2.3622399999999999E-07, 2.3650199999999998E-07, 2.3622399999999999E-07
DataValue, -1.08, -2.16449E-07, 2.13569E-07, 2.16449E-07, 2.13569E-07
DataValue, -1.06, -1.94909E-07, 1.94979E-07, 1.94909E-07, 1.94979E-07
DataValue, -1.04, -1.78247E-07, 1.7833E-07, 1.78247E-07, 1.7833E-07
DataValue, -1.02, -1.62416E-07, 1.6172E-07, 1.62416E-07, 1.6172E-07
DataValue, -1, -1.47567E-07, 1.4771E-07, 1.47567E-07, 1.4771E-07
DataValue, -0.98000000000000009, -1.34499E-07, 1.34287E-07, 1.34499E-07, 1.34287E-07
DataValue, -0.96000000000000008, -1.21946E-07, 1.22003E-07, 1.21946E-07, 1.22003E-07
DataValue, -0.94000000000000006, -1.1043199999999999E-07, 1.09648E-07, 1.1043199999999999E-07, 1.09648E-07
DataValue, -0.92, -9.90354E-08, 9.8869899999999993E-08, 9.90354E-08, 9.8869899999999993E-08
DataValue, -0.9, -8.87867E-08, 8.942759999999999E-08, 8.87867E-08, 8.942759999999999E-08
DataValue, -0.88, -7.995E-08, 8.0227E-08, 7.995E-08, 8.0227E-08
DataValue, -0.86, -7.17264E-08, 7.14324E-08, 7.17264E-08, 7.14324E-08
DataValue, -0.84000000000000008, -6.39161E-08, 6.36215E-08, 6.39161E-08, 6.36215E-08
DataValue, -0.82000000000000006, -5.6387899999999996E-08, 5.639E-08, 5.6387899999999996E-08, 5.639E-08
DataValue, -0.8, -4.9912399999999992E-08, 4.9508699999999994E-08, 4.9912399999999992E-08, 4.9508699999999994E-08
DataValue, -0.78, -4.3810899999999996E-08, 4.40087E-08, 4.3810899999999996E-08, 4.40087E-08
DataValue, -0.76, -3.9773699999999993E-08, 3.9553299999999993E-08, 3.9773699999999993E-08, 3.9553299999999993E-08
DataValue, -0.74, -3.43588E-08, 3.44208E-08, 3.43588E-08, 3.44208E-08
DataValue, -0.72000000000000008, -3.01579E-08, 3.0297099999999995E-08, 3.01579E-08, 3.0297099999999995E-08
DataValue, -0.70000000000000007, -2.6782899999999997E-08, 2.67647E-08, 2.6782899999999997E-08, 2.67647E-08
DataValue, -0.68, -2.3529299999999998E-08, 2.3605699999999997E-08, 2.3529299999999998E-08, 2.3605699999999997E-08
DataValue, -0.66, -2.0812299999999998E-08, 2.1199299999999996E-08, 2.0812299999999998E-08, 2.1199299999999996E-08
DataValue, -0.64, -1.8287499999999997E-08, 1.82923E-08, 1.8287499999999997E-08, 1.82923E-08
DataValue, -0.62, -1.60873E-08, 1.60784E-08, 1.60873E-08, 1.60784E-08
DataValue, -0.6, -1.41526E-08, 1.4129799999999999E-08, 1.41526E-08, 1.4129799999999999E-08
DataValue, -0.58000000000000007, -1.2433199999999999E-08, 1.2432799999999999E-08, 1.2433199999999999E-08, 1.2432799999999999E-08
DataValue, -0.56, -1.0873899999999998E-08, 1.08835E-08, 1.0873899999999998E-08, 1.08835E-08
DataValue, -0.54, -9.50309E-09, 9.49227E-09, 9.50309E-09, 9.49227E-09
DataValue, -0.52, -8.31376E-09, 8.29796E-09, 8.31376E-09, 8.29796E-09
DataValue, -0.5, -7.3323E-09, 7.40592E-09, 7.3323E-09, 7.40592E-09
DataValue, -0.48000000000000004, -6.5906999999999996E-09, 6.64215E-09, 6.5906999999999996E-09, 6.64215E-09
DataValue, -0.46, -5.75184E-09, 5.70114E-09, 5.75184E-09, 5.70114E-09
DataValue, -0.44, -4.86311E-09, 4.97279E-09, 4.86311E-09, 4.97279E-09
DataValue, -0.42000000000000004, -4.1929E-09, 4.07043E-09, 4.1929E-09, 4.07043E-09
DataValue, -0.4, -3.74153E-09, 3.73597E-09, 3.74153E-09, 3.73597E-09
DataValue, -0.38, -3.23252E-09, 3.06694E-09, 3.23252E-09, 3.06694E-09
DataValue, -0.36000000000000004, -2.56981E-09, 2.57836E-09, 2.56981E-09, 2.57836E-09
DataValue, -0.34, -2.17936E-09, 2.17768E-09, 2.17936E-09, 2.17768E-09
DataValue, -0.32, -1.83477E-09, 1.83757E-09, 1.83477E-09, 1.83757E-09
DataValue, -0.3, -1.52964E-09, 1.53172E-09, 1.52964E-09, 1.53172E-09
DataValue, -0.28, -1.27985E-09, 1.28358E-09, 1.27985E-09, 1.28358E-09
DataValue, -0.26, -1.04736E-09, 1.06138E-09, 1.04736E-09, 1.06138E-09
DataValue, -0.24000000000000002, -8.63892E-10, 8.60469E-10, 8.63892E-10, 8.60469E-10
DataValue, -0.22, -7.12784E-10, 7.16036E-10, 7.12784E-10, 7.16036E-10
DataValue, -0.2, -5.7864100000000009E-10, 5.7812100000000008E-10, 5.7864100000000009E-10, 5.7812100000000008E-10
DataValue, -0.18000000000000002, -5.16894E-10, 5.1412000000000008E-10, 5.16894E-10, 5.1412000000000008E-10
DataValue, -0.16, -4.10347E-10, 4.09607E-10, 4.10347E-10, 4.09607E-10
DataValue, -0.14, -3.22439E-10, 3.2161600000000004E-10, 3.22439E-10, 3.2161600000000004E-10
DataValue, -0.12000000000000001, -2.4614600000000004E-10, 2.67542E-10, 2.4614600000000004E-10, 2.67542E-10
DataValue, -0.1, -2.3373600000000003E-10, 2.33245E-10, 2.3373600000000003E-10, 2.33245E-10
DataValue, -0.08, -1.73312E-10, 1.71905E-10, 1.73312E-10, 1.71905E-10
DataValue, -0.060000000000000005, -1.21921E-10, 1.2294000000000002E-10, 1.21921E-10, 1.2294000000000002E-10
DataValue, -0.04, -7.8727000000000009E-11, 7.847400000000001E-11, 7.8727000000000009E-11, 7.847400000000001E-11
DataValue, -0.02, -3.6946000000000004E-11, 3.6718000000000006E-11, 3.6946000000000004E-11, 3.6718000000000006E-11
DataValue, 0, 8.8300000000000007E-13, -8.96E-13, 8.8300000000000007E-13, 8.96E-13
DataValue, 0.02, 3.9549000000000006E-11, -3.9466000000000005E-11, 3.9549000000000006E-11, 3.9466000000000005E-11
DataValue, 0.04, 8.1362000000000008E-11, -8.1442000000000009E-11, 8.1362000000000008E-11, 8.1442000000000009E-11
DataValue, 0.060000000000000005, 1.29912E-10, -1.29236E-10, 1.29912E-10, 1.29236E-10
DataValue, 0.08, 1.8975900000000002E-10, -1.8825300000000002E-10, 1.8975900000000002E-10, 1.8825300000000002E-10
DataValue, 0.1, 2.6221300000000004E-10, -2.6207900000000003E-10, 2.6221300000000004E-10, 2.6207900000000003E-10
DataValue, 0.12000000000000001, 3.6127700000000004E-10, -3.5948700000000004E-10, 3.6127700000000004E-10, 3.5948700000000004E-10
DataValue, 0.14, 4.7048E-10, -4.69795E-10, 4.7048E-10, 4.69795E-10
DataValue, 0.16, 6.1623000000000005E-10, -6.1775000000000006E-10, 6.1623000000000005E-10, 6.1775000000000006E-10
DataValue, 0.18000000000000002, 8.04147E-10, -8.0457100000000005E-10, 8.04147E-10, 8.0457100000000005E-10
DataValue, 0.2, 1.05084E-09, -1.0467800000000002E-09, 1.05084E-09, 1.0467800000000002E-09
DataValue, 0.22, 1.34916E-09, -1.34926E-09, 1.34916E-09, 1.34926E-09
DataValue, 0.24000000000000002, 1.66544E-09, -1.66247E-09, 1.66544E-09, 1.66247E-09
DataValue, 0.26, 1.96881E-09, -1.9672E-09, 1.96881E-09, 1.9672E-09
DataValue, 0.28, 2.42566E-09, -2.41924E-09, 2.42566E-09, 2.41924E-09
DataValue, 0.3, 2.93281E-09, -2.91375E-09, 2.93281E-09, 2.91375E-09
DataValue, 0.32, 3.54992E-09, -3.49603E-09, 3.54992E-09, 3.49603E-09
DataValue, 0.34, 4.12525E-09, -4.14284E-09, 4.12525E-09, 4.14284E-09
DataValue, 0.36000000000000004, 4.9223899999999996E-09, -4.9107E-09, 4.9223899999999996E-09, 4.9107E-09
DataValue, 0.38, 5.84408E-09, -5.87427E-09, 5.84408E-09, 5.87427E-09
DataValue, 0.4, 6.78134E-09, -6.78777E-09, 6.78134E-09, 6.78777E-09
DataValue, 0.42000000000000004, 7.94273E-09, -7.93686E-09, 7.94273E-09, 7.93686E-09
DataValue, 0.44, 9.26584E-09, -9.24805E-09, 9.26584E-09, 9.24805E-09
DataValue, 0.46, 1.06433E-08, -1.071949E-08, 1.06433E-08, 1.071949E-08
DataValue, 0.48000000000000004, 1.23492E-08, -1.2375699999999998E-08, 1.23492E-08, 1.2375699999999998E-08
DataValue, 0.5, 1.4182699999999999E-08, -1.41537E-08, 1.4182699999999999E-08, 1.41537E-08
DataValue, 0.52, 1.61115E-08, -1.6141399999999997E-08, 1.61115E-08, 1.6141399999999997E-08
DataValue, 0.54, 1.8275499999999997E-08, -1.8206899999999997E-08, 1.8275499999999997E-08, 1.8206899999999997E-08
DataValue, 0.56, 2.0670699999999997E-08, -2.0626099999999998E-08, 2.0670699999999997E-08, 2.0626099999999998E-08
DataValue, 0.58000000000000007, 2.34032E-08, -2.3393499999999997E-08, 2.34032E-08, 2.3393499999999997E-08
DataValue, 0.6, 2.6409399999999997E-08, -2.63477E-08, 2.6409399999999997E-08, 2.63477E-08
DataValue, 0.62, 2.9469699999999996E-08, -2.9497399999999998E-08, 2.9469699999999996E-08, 2.9497399999999998E-08
DataValue, 0.64, 3.3579999999999994E-08, -3.3549E-08, 3.3579999999999994E-08, 3.3549E-08
DataValue, 0.66, 3.80519E-08, -3.8031199999999996E-08, 3.80519E-08, 3.8031199999999996E-08
DataValue, 0.68, 4.2550999999999995E-08, -4.2110399999999993E-08, 4.2550999999999995E-08, 4.2110399999999993E-08
DataValue, 0.70000000000000007, 4.7308599999999995E-08, -4.71197E-08, 4.7308599999999995E-08, 4.71197E-08
DataValue, 0.72000000000000008, 5.2800299999999993E-08, -5.2294499999999992E-08, 5.2800299999999993E-08, 5.2294499999999992E-08
DataValue, 0.74, 5.8233499999999997E-08, -5.7889399999999992E-08, 5.8233499999999997E-08, 5.7889399999999992E-08
DataValue, 0.76, 6.47356E-08, -6.4887999999999992E-08, 6.47356E-08, 6.4887999999999992E-08
DataValue, 0.78, 7.25341E-08, -7.2319999999999988E-08, 7.25341E-08, 7.2319999999999988E-08
DataValue, 0.8, 8.063859999999999E-08, -8.0461599999999988E-08, 8.063859999999999E-08, 8.0461599999999988E-08
DataValue, 0.82000000000000006, 8.9345099999999989E-08, -8.9428099999999991E-08, 8.9345099999999989E-08, 8.9428099999999991E-08
DataValue, 0.84000000000000008, 9.9752599999999985E-08, -1.002286E-07, 9.9752599999999985E-08, 1.002286E-07
DataValue, 0.86, 1.1182829999999999E-07, -1.1193609999999998E-07, 1.1182829999999999E-07, 1.1193609999999998E-07
DataValue, 0.88, 1.25564E-07, -1.3232099999999998E-07, 1.25564E-07, 1.3232099999999998E-07
DataValue, 0.9, 1.41545E-07, -1.42632E-07, 1.41545E-07, 1.42632E-07
DataValue, 0.92, 1.66768E-07, -1.85628E-07, 1.66768E-07, 1.85628E-07
DataValue, 0.94000000000000006, 1.79504E-07, -1.7861299999999999E-07, 1.79504E-07, 1.7861299999999999E-07
DataValue, 0.96000000000000008, 2.01359E-07, -2.02172E-07, 2.01359E-07, 2.02172E-07
DataValue, 0.98000000000000009, 2.26212E-07, -2.26089E-07, 2.26212E-07, 2.26089E-07
DataValue, 1, 2.5315E-07, -2.5229699999999997E-07, 2.5315E-07, 2.5229699999999997E-07
DataValue, 1.02, 2.8231699999999997E-07, -2.81302E-07, 2.8231699999999997E-07, 2.81302E-07
DataValue, 1.04, 3.14678E-07, -3.14168E-07, 3.14678E-07, 3.14168E-07
DataValue, 1.06, 3.5024699999999997E-07, -3.51625E-07, 3.5024699999999997E-07, 3.51625E-07
DataValue, 1.08, 3.90713E-07, -3.90217E-07, 3.90713E-07, 3.90217E-07
DataValue, 1.1, 4.3351399999999997E-07, -4.3374399999999997E-07, 4.3351399999999997E-07, 4.3374399999999997E-07
DataValue, 1.12, 4.80992E-07, -4.7825799999999994E-07, 4.80992E-07, 4.7825799999999994E-07
DataValue, 1.1400000000000001, 5.314E-07, -5.29923E-07, 5.314E-07, 5.29923E-07
DataValue, 1.1600000000000001, 5.86558E-07, -5.85726E-07, 5.86558E-07, 5.85726E-07
DataValue, 1.1800000000000002, 6.40175E-07, -6.43459E-07, 6.40175E-07, 6.43459E-07
DataValue, 1.2, 7.0714499999999994E-07, -7.06752E-07, 7.0714499999999994E-07, 7.06752E-07
DataValue, 1.22, 7.7773699999999994E-07, -7.7434199999999993E-07, 7.7773699999999994E-07, 7.7434199999999993E-07
DataValue, 1.24, 8.4327E-07, -8.39991E-07, 8.4327E-07, 8.39991E-07
DataValue, 1.26, 9.10891E-07, -9.51583E-07, 9.10891E-07, 9.51583E-07
DataValue, 1.28, 9.9190000000000019E-07, -9.957E-07, 9.9190000000000019E-07, 9.957E-07
DataValue, 1.3, 1.0848900000000001E-06, -1.08238E-06, 1.0848900000000001E-06, 1.08238E-06
DataValue, 1.32, 1.17254E-06, -1.17076E-06, 1.17254E-06, 1.17076E-06
DataValue, 1.34, 1.26864E-06, -1.26904E-06, 1.26864E-06, 1.26904E-06
DataValue, 1.36, 1.36391E-06, -1.59518E-06, 1.36391E-06, 1.59518E-06
DataValue, 1.3800000000000001, 1.7318200000000002E-06, -1.7202600000000002E-06, 1.7318200000000002E-06, 1.7202600000000002E-06
DataValue, 1.4000000000000001, 1.8598000000000002E-06, -1.86463E-06, 1.8598000000000002E-06, 1.86463E-06
DataValue, 1.4200000000000002, 1.99904E-06, -1.99537E-06, 1.99904E-06, 1.99537E-06
DataValue, 1.4400000000000002, 2.1557100000000002E-06, -2.1445000000000004E-06, 2.1557100000000002E-06, 2.1445000000000004E-06
DataValue, 1.46, 2.2933100000000004E-06, -2.28345E-06, 2.2933100000000004E-06, 2.28345E-06
DataValue, 1.48, 2.4413200000000004E-06, -2.4423200000000004E-06, 2.4413200000000004E-06, 2.4423200000000004E-06
DataValue, 1.5, 2.60149E-06, -2.6068700000000004E-06, 2.60149E-06, 2.6068700000000004E-06
DataValue, 1.5, 2.6139900000000004E-06, -2.7275800000000002E-06, 2.6139900000000004E-06, 2.7275800000000002E-06
DataValue, 1.48, 2.6562E-06, -2.6407000000000004E-06, 2.6562E-06, 2.6407000000000004E-06
